
**** 05/16/22 13:51:03 *********** Evaluation PSpice (Nov 1999) **************

 * C:\POE\EX3.sch


 ****     CIRCUIT DESCRIPTION


******************************************************************************




* Schematics Version 9.1 - Web Update 1
* Mon May 16 13:50:58 2022



** Analysis setup **
.OP 


* From [PSPICE NETLIST] section of pspiceev.ini:
.lib "nom.lib"

.INC "EX3.net"

**** INCLUDING EX3.net ****
* Schematics Netlist *



R_R1         $N_0002 $N_0001  2  
R_R2         $N_0001 $N_0003  4  
R_R3         $N_0003 $N_0004  6  
R_R4         0 $N_0001  3  
R_R5         0 $N_0003  1  
V_V1         $N_0002 0 10V
V_V2         $N_0004 0 5V

**** RESUMING EX3.cir ****
.INC "EX3.als"



**** INCLUDING EX3.als ****
* Schematics Aliases *

.ALIASES
R_R1            R1(1=$N_0002 2=$N_0001 )
R_R2            R2(1=$N_0001 2=$N_0003 )
R_R3            R3(1=$N_0003 2=$N_0004 )
R_R4            R4(1=0 2=$N_0001 )
R_R5            R5(1=0 2=$N_0003 )
V_V1            V1(+=$N_0002 -=0 )
V_V2            V2(+=$N_0004 -=0 )
.ENDALIASES


**** RESUMING EX3.cir ****
.probe


.END

**** 05/16/22 13:51:03 *********** Evaluation PSpice (Nov 1999) **************

 * C:\POE\EX3.sch


 ****     SMALL SIGNAL BIAS SOLUTION       TEMPERATURE =   27.000 DEG C


******************************************************************************



 NODE   VOLTAGE     NODE   VOLTAGE     NODE   VOLTAGE     NODE   VOLTAGE


($N_0001)    4.9528                   ($N_0002)   10.0000                       

($N_0003)    1.4623                   ($N_0004)    5.0000                   




    VOLTAGE SOURCE CURRENTS
    NAME         CURRENT

    V_V1        -2.524E+00
    V_V2        -5.896E-01

    TOTAL POWER DISSIPATION   2.82E+01  WATTS


**** 05/16/22 13:51:03 *********** Evaluation PSpice (Nov 1999) **************

 * C:\POE\EX3.sch


 ****     OPERATING POINT INFORMATION      TEMPERATURE =   27.000 DEG C


******************************************************************************





          JOB CONCLUDED

          TOTAL JOB TIME             .02
