
**** 05/16/22 13:57:55 *********** Evaluation PSpice (Nov 1999) **************

 * C:\POE\EX4.sch


 ****     CIRCUIT DESCRIPTION


******************************************************************************




* Schematics Version 9.1 - Web Update 1
* Mon May 16 13:57:51 2022



** Analysis setup **
.OP 


* From [PSPICE NETLIST] section of pspiceev.ini:
.lib "nom.lib"

.INC "EX4.net"

**** INCLUDING EX4.net ****
* Schematics Netlist *



R_R1         $N_0002 $N_0001  3  
R_R2         0 $N_0002  2  
R_R3         0 $N_0001  4  
R_R4         $N_0003 $N_0001  1  
I_I1         0 $N_0002 DC 10A  
V_V1         $N_0003 0 5V

**** RESUMING EX4.cir ****
.INC "EX4.als"



**** INCLUDING EX4.als ****
* Schematics Aliases *

.ALIASES
R_R1            R1(1=$N_0002 2=$N_0001 )
R_R2            R2(1=0 2=$N_0002 )
R_R3            R3(1=0 2=$N_0001 )
R_R4            R4(1=$N_0003 2=$N_0001 )
I_I1            I1(+=0 -=$N_0002 )
V_V1            V1(+=$N_0003 -=0 )
.ENDALIASES


**** RESUMING EX4.cir ****
.probe


.END

**** 05/16/22 13:57:55 *********** Evaluation PSpice (Nov 1999) **************

 * C:\POE\EX4.sch


 ****     SMALL SIGNAL BIAS SOLUTION       TEMPERATURE =   27.000 DEG C


******************************************************************************



 NODE   VOLTAGE     NODE   VOLTAGE     NODE   VOLTAGE     NODE   VOLTAGE


($N_0001)    6.2069                   ($N_0002)   14.4830                       

($N_0003)    5.0000                   




    VOLTAGE SOURCE CURRENTS
    NAME         CURRENT

    V_V1         1.207E+00

    TOTAL POWER DISSIPATION  -6.03E+00  WATTS


**** 05/16/22 13:57:55 *********** Evaluation PSpice (Nov 1999) **************

 * C:\POE\EX4.sch


 ****     OPERATING POINT INFORMATION      TEMPERATURE =   27.000 DEG C


******************************************************************************





          JOB CONCLUDED

          TOTAL JOB TIME             .05
